Gnucap : The Gnu Circuit Analysis Package
Never trust any version less than 1.0
Copyright 1982-2013, Albert Davis
Gnucap comes with ABSOLUTELY NO WARRANTY
This is free software, and you are welcome
to redistribute it under the terms of 
the GNU General Public License, version 3 or later.
See the file "COPYING" for details.
main version: 2013.04.23 RCS 26.138
core-lib version: 2013.04.23 RCS 26.138
default plugins: 2013.04.23 RCS 26.138
#Time       v(n1)      v(n2)      method(c1) disc(n1)   disc(n2)   hidden(0)  event(v1) 
 0.         0.         0.         2.         0.         0.         1.         0.001     
 200.u      0.         0.         2.         0.         0.         1.         0.001     
 400.u      0.         0.         2.         0.         0.         1.         0.001     
 600.u      0.         0.         2.         0.         0.         1.         0.001     
 800.u      0.         0.         2.         0.         0.         1.         0.001     
 0.001      0.         0.         2.         2.         0.         1.         0.002     
 0.002      1.         0.83333    1.         2.         0.         1.         0.005     
 0.0026207  1.         0.95938    1.         0.         0.         1.         0.005     
 0.0032414  1.         1.0088     2.         0.         0.         1.         0.005     
 0.0037069  1.         0.99934    2.         0.         0.         1.         0.005     
 0.0048707  1.         1.0003     2.         0.         0.         1.         0.005     
 0.005      1.         1.0002     2.         2.         0.         1.         0.01      
 0.0061538  0.76923    0.80335    1.         0.         0.         1.         0.01      
 0.0073077  0.53846    0.58132    2.         0.         0.         1.         0.01      
 0.0079121  0.41758    0.457      2.         0.         0.         1.         0.01      
 0.0091209  0.17582    0.21612    2.         0.         0.         1.         0.01      
 0.01       398.91p    0.039891   2.         2.         0.         1.         0.        
 0.010008   382.97p    0.038298   1.         0.         0.         2.         0.        
 0.010014   371.43p    0.037143   2.         0.         0.         1.         0.        
 0.010019   363.49p    0.036349   2.         0.         0.         1.         0.        
 0.010023   355.72p    0.035572   2.         0.         0.         1.         0.        
 0.010108   230.7p     0.023071   2.         0.         0.         1.         0.        
 0.010194   149.63p    0.014963   2.         0.         0.         1.         0.        
 0.010279   97.041p    0.0097041  2.         0.         0.         1.         0.        
 0.010364   62.936p    0.0062936  2.         0.         0.         1.         0.        
 0.010449   40.818p    0.0040818  2.         0.         0.         1.         0.        
 0.010535   26.473p    0.0026473  2.         0.         0.         1.         0.        
 0.01062    17.169p    0.0017169  2.         0.         0.         1.         0.        
 0.010705   11.135p    0.0011135  2.         0.         0.         1.         0.        
 0.010791   7.222p     722.18u    2.         0.         0.         1.         0.        
 0.010876   4.684p     468.37u    2.         0.         0.         1.         0.        
 0.010961   3.038p     303.77u    2.         0.         0.         1.         0.        
 0.011046   1.97p      197.01u    2.         0.         0.         1.         0.        
 0.011132   1.278p     127.77u    2.         0.         0.         1.         0.        
 0.011217   829.f      82.868u    2.         0.         0.         1.         0.        
 0.011302   537.f      53.745u    2.         0.         0.         1.         0.        
 0.011387   349.f      34.856u    2.         0.         0.         1.         0.        
 0.011473   226.f      22.606u    2.         0.         0.         1.         0.        
 0.011558   147.f      14.662u    2.         0.         0.         1.         0.        
 0.011643   95.f       9.5088u    2.         0.         0.         1.         0.        
 0.011729   62.f       6.167u     2.         0.         0.         1.         0.        
 0.011866   30.f       3.0057u    2.         0.         0.         1.         0.        
 0.012004   15.f       1.4649u    2.         0.         0.         1.         0.        
 0.012142   7.f        713.98n    2.         0.         0.         1.         0.        
 0.012373   2.f        191.06n    2.         0.         0.         1.         0.        
 0.012604   1.f        51.128n    2.         0.         0.         1.         0.        
 0.013039   0.        -2.1453n    2.         0.         0.         1.         0.        
 0.013474   0.         90.02p     2.         0.         0.         1.         0.        
 0.014562   0.        -41.609p    2.         0.         0.         1.         0.        
 0.016375   0.         26.565p    2.         0.         0.         1.         0.        
 0.02       0.        -21.285p    2.         0.         0.         1.         0.        
Gnucap   System status
command ------ last -- total
       get     0.00     0.00
        op     0.00     0.00
        dc     0.00     0.00
      tran     0.00     0.00
   fourier     0.00     0.00
        ac     0.00     0.00
function ----- last -- total
     setup     0.00     0.00
     order     0.00     0.00
function ----- last -- total
   advance     0.00     0.00
     queue     0.00     0.00
  evaluate     0.00     0.00
      load     0.00     0.00
        lu     0.00     0.00
      back     0.00     0.00
    review     0.00     0.00
    accept     0.00     0.00
    output     0.00     0.00
  overhead     0.00     0.00
     total     0.00     0.00
iterations: op=0, dc=0, tran=192, fourier=0, total=244
transient timesteps: accepted=51, rejected=1, total=52
nodes: user=2, subckt=0, model=0, total=2
dctran density=100.0%, ac density=100.0%
#Time       v(n1)      v(n2)      method(c1) disc(n1)   disc(n2)   hidden(0)  event(v1) 
 0.         0.         0.         2.         0.         0.         2.         0.001     
 200.u      0.         0.         2.         0.         0.         1.         0.001     
 400.u      0.         0.         2.         0.         0.         1.         0.001     
 600.u      0.         0.         2.         0.         0.         1.         0.001     
 800.u      0.         0.         2.         0.         0.         1.         0.001     
 0.001      0.         0.         2.         2.         0.         1.         0.002     
 0.0011092  0.1092     0.023417   2.         0.         0.         3.         0.002     
 0.0011713  0.17134    0.05484    2.         0.         0.         1.         0.002     
 0.0012335  0.23348    0.094525   2.         0.         0.         1.         0.002     
 0.0012956  0.29562    0.14025    2.         0.         0.         1.         0.002     
 0.0014037  0.40374    0.22937    2.         0.         0.         1.         0.002     
 0.0015119  0.51185    0.32658    2.         0.         0.         1.         0.002     
 0.0017044  0.70444    0.50959    2.         0.         0.         1.         0.002     
 0.001897   0.89702    0.69883    2.         0.         0.         1.         0.002     
 0.002      1.         0.80107    2.         2.         0.         1.         0.005     
 0.0022222  1.         0.94316    2.         0.         0.         2.         0.005     
 0.0024444  1.         0.98376    2.         0.         0.         1.         0.005     
 0.0026667  1.         0.99536    2.         0.         0.         1.         0.005     
 0.0028889  1.         0.99867    2.         0.         0.         1.         0.005     
 0.0032381  1.         0.99991    2.         0.         0.         1.         0.005     
 0.0037788  1.         1.         2.         0.         0.         1.         0.005     
 0.004733   1.         0.99999    2.         0.         0.         1.         0.005     
 0.005      1.         1.         2.         2.         0.         1.         0.01      
 0.00625    0.75       0.81061    2.         0.         0.         2.         0.01      
 0.0069375  0.6125     0.64705    2.         0.         0.         1.         0.01      
 0.007625   0.475      0.51644    2.         0.         0.         1.         0.01      
 0.0083125  0.3375     0.37712    2.         0.         0.         1.         0.01      
 0.009      0.2        0.2401     2.         0.         0.         1.         0.01      
 0.0096875  0.0625     0.10247    2.         0.         0.         1.         0.01      
 0.01       399.97p    0.039997   2.         2.         0.         1.         0.        
 0.010004   393.p      0.0393     2.         0.         0.         3.         0.        
 0.010007   386.16p    0.038616   2.         0.         0.         1.         0.        
 0.010009   381.99p    0.038199   2.         0.         0.         1.         0.        
 0.010011   377.87p    0.037787   2.         0.         0.         1.         0.        
 0.010096   245.87p    0.024587   2.         0.         0.         1.         0.        
 0.010181   159.98p    0.015998   2.         0.         0.         1.         0.        
 0.010265   104.1p     0.01041    2.         0.         0.         1.         0.        
 0.01035    67.734p    0.0067734  2.         0.         0.         1.         0.        
 0.010435   44.073p    0.0044073  2.         0.         0.         1.         0.        
 0.010519   28.677p    0.0028677  2.         0.         0.         1.         0.        
 0.010604   18.66p     0.001866   2.         0.         0.         1.         0.        
 0.010689   12.142p    0.0012142  2.         0.         0.         1.         0.        
 0.010773   7.9p       790.02u    2.         0.         0.         1.         0.        
 0.010858   5.14p      514.05u    2.         0.         0.         1.         0.        
 0.010943   3.345p     334.48u    2.         0.         0.         1.         0.        
 0.011027   2.176p     217.64u    2.         0.         0.         1.         0.        
 0.011112   1.416p     141.61u    2.         0.         0.         1.         0.        
 0.011196   921.f      92.144u    2.         0.         0.         1.         0.        
 0.011281   600.f      59.956u    2.         0.         0.         1.         0.        
 0.011366   390.f      39.012u    2.         0.         0.         1.         0.        
 0.01145    254.f      25.384u    2.         0.         0.         1.         0.        
 0.011535   165.f      16.517u    2.         0.         0.         1.         0.        
 0.01162    107.f      10.747u    2.         0.         0.         1.         0.        
 0.011704   70.f       6.993u     2.         0.         0.         1.         0.        
 0.011836   35.f       3.5292u    2.         0.         0.         1.         0.        
 0.011968   18.f       1.7811u    2.         0.         0.         1.         0.        
 0.012099   9.f        898.86n    2.         0.         0.         1.         0.        
 0.012319   3.f        261.97n    2.         0.         0.         1.         0.        
 0.012538   1.f        76.349n    2.         0.         0.         1.         0.        
 0.012931   0.         701.09p    2.         0.         0.         1.         0.        
 0.013324   0.         6.438p     2.         0.         0.         1.         0.        
 0.014158   0.        -2.266p     2.         0.         0.         1.         0.        
 0.015619   0.         1.292p     2.         0.         0.         1.         0.        
 0.02       0.        -1.076p     2.         0.         0.         1.         0.        
Gnucap   System status
command ------ last -- total
       get     0.00     0.00
        op     0.00     0.00
        dc     0.00     0.00
      tran     0.01     0.01
   fourier     0.00     0.00
        ac     0.00     0.00
function ----- last -- total
     setup     0.00     0.00
     order     0.00     0.00
function ----- last -- total
   advance     0.00     0.00
     queue     0.00     0.00
  evaluate     0.00     0.00
      load     0.00     0.00
        lu     0.00     0.00
      back     0.00     0.00
    review     0.00     0.00
    accept     0.00     0.00
    output     0.01     0.01
  overhead     0.00     0.00
     total     0.01     0.01
iterations: op=0, dc=0, tran=263, fourier=0, total=577
transient timesteps: accepted=115, rejected=7, total=122
nodes: user=2, subckt=0, model=0, total=2
dctran density=100.0%, ac density=100.0%
