' 
V1 ( 1 0 )  DC  1.  AC  1.
R1 ( 1 2 )  1.K
W1 ( 2 0 Rprobe )  sss 
V2 ( 3 0 )  DC  1.  AC  1.
R2 ( 3 4 )  1.K
W2 ( 4 0 Vprobe )  sss 
V3 ( 5 0 )  DC  1.  AC  1.
R3 ( 5 6 )  1.K
W3 ( 6 0 Isig )  sss 
Isig ( 7 0 ) pwl( 0., 0.  5.,-0.005  15., 0.005  25.,-0.005 )
Rprobe ( 7 8 )  1.K
Vprobe ( 8 0 )  DC  0.
.model sss csw ( it=0. ih=.002 ion=NA( 0.002) ioff=NA(-0.002) ron=1.K roff=1.E+12 tnom=NA( 27.))
#           v(2)       v(4)       v(6)       v(7)       v(8)       ev(W1)     ev(W2)     ev(W3)     i(Isig)    i(Rprobe)  i(Vprobe)  iter(0)   
 0.005      1.         1.         0.5       -5.        -50.n       1.E+12     1.E+12     1.K        0.005     -0.005     -0.005      5.        
 0.004      1.         1.         0.5       -4.        -40.n       1.E+12     1.E+12     1.K        0.004     -0.004     -0.004      4.        
 0.003      1.         1.         0.5       -3.        -30.n       1.E+12     1.E+12     1.K        0.003     -0.003     -0.003      4.        
 0.002      1.         1.         0.5       -2.        -20.n       1.E+12     1.E+12     1.K        0.002     -0.002     -0.002      4.        
 0.001      1.         1.         0.5       -1.        -10.n       1.E+12     1.E+12     1.K        0.001     -0.001     -0.001      4.        
 0.         1.         1.         0.5        0.         0.         1.E+12     1.E+12     1.K        0.         0.         0.         4.        
-0.001      1.         1.         0.5        1.         10.n       1.E+12     1.E+12     1.K       -0.001      0.001      0.001      4.        
-0.002      1.         1.         0.5        2.         20.n       1.E+12     1.E+12     1.K       -0.002      0.002      0.002      4.        
-0.003      0.5        0.5        1.         3.         30.n       1.K        1.K        1.E+12    -0.003      0.003      0.003      4.        
-0.004      0.5        0.5        1.         4.         40.n       1.K        1.K        1.E+12    -0.004      0.004      0.004      4.        
-0.005      0.5        0.5        1.         5.         50.n       1.K        1.K        1.E+12    -0.005      0.005      0.005      5.        
-0.004      0.5        0.5        1.         4.         40.n       1.K        1.K        1.E+12    -0.004      0.004      0.004      4.        
-0.003      0.5        0.5        1.         3.         30.n       1.K        1.K        1.E+12    -0.003      0.003      0.003      4.        
-0.002      0.5        0.5        1.         2.         20.n       1.K        1.K        1.E+12    -0.002      0.002      0.002      4.        
-0.001      0.5        0.5        1.         1.         10.n       1.K        1.K        1.E+12    -0.001      0.001      0.001      4.        
 0.         0.5        0.5        1.         0.         0.         1.K        1.K        1.E+12     0.         0.         0.         4.        
 0.001      0.5        0.5        1.        -1.        -10.n       1.K        1.K        1.E+12     0.001     -0.001     -0.001      4.        
 0.002      0.5        0.5        1.        -2.        -20.n       1.K        1.K        1.E+12     0.002     -0.002     -0.002      4.        
 0.003      1.         1.         0.5       -3.        -30.n       1.E+12     1.E+12     1.K        0.003     -0.003     -0.003      4.        
 0.004      1.         1.         0.5       -4.        -40.n       1.E+12     1.E+12     1.K        0.004     -0.004     -0.004      4.        
 0.005      1.         1.         0.5       -5.        -50.n       1.E+12     1.E+12     1.K        0.005     -0.005     -0.005      4.        
#Freq       v(2)       v(4)       v(6)       v(7)       v(8)       ev(W1)     ev(W2)     ev(W3)     i(Isig)    i(Rprobe)  i(Vprobe)  iter(0)   
 1.K        1.         1.         0.5        0.         0.         1.E+12     1.E+12     1.K        0.         0.         0.         0.        
#Time       v(2)       v(4)       v(6)       v(7)       v(8)       ev(W1)     ev(W2)     ev(W3)     i(Isig)    i(Rprobe)  i(Vprobe)  iter(0)   
 0.         0.         0.         0.         0.         0.         1.E+12     1.E+12     1.E+12     0.         0.         0.         0.        
-1.         1.         1.         1.         0.         0.         1.E+12     1.E+12     1.E+12     0.         0.         0.         1.        
-2.         1.         1.         1.         0.         0.         1.E+12     1.E+12     1.E+12     0.         0.         0.         1.        
 0.         1.         1.         1.         0.         0.         1.E+12     1.E+12     1.E+12     0.         0.         0.         1.        
 0.         1.         1.         1.         0.         0.         1.E+12     1.E+12     1.E+12     0.         0.         0.         0.        
-1.         1.         1.         1.         0.01       100.p      1.E+12     1.E+12     1.E+12    -10.u       10.u       10.u       1.        
-2.         1.         1.         1.         0.01       100.p      1.E+12     1.E+12     1.E+12    -10.u       10.u       10.u       1.        
-3.         1.         1.         1.         0.01       100.p      1.E+12     1.E+12     1.E+12    -10.u       10.u       10.u       1.        
 0.01       1.         1.         1.         0.01       100.p      1.E+12     1.E+12     1.E+12    -10.u       10.u       10.u       1.        
 0.         1.         1.         1.         0.01       100.p      1.E+12     1.E+12     1.E+12    -10.u       10.u       10.u       0.        
-1.         1.         1.         1.         0.02       200.p      1.E+12     1.E+12     1.E+12    -20.u       20.u       20.u       1.        
-2.         1.         1.         1.         0.02       200.p      1.E+12     1.E+12     1.E+12    -20.u       20.u       20.u       1.        
-3.         1.         1.         1.         0.02       200.p      1.E+12     1.E+12     1.E+12    -20.u       20.u       20.u       1.        
 0.02       1.         1.         1.         0.02       200.p      1.E+12     1.E+12     1.E+12    -20.u       20.u       20.u       1.        
 0.         1.         1.         1.         0.02       200.p      1.E+12     1.E+12     1.E+12    -20.u       20.u       20.u       0.        
-1.         1.         1.         1.         1.         10.n       1.E+12     1.E+12     1.E+12    -0.001      0.001      0.001      1.        
-2.         1.         1.         1.         1.         10.n       1.E+12     1.E+12     1.E+12    -0.001      0.001      0.001      1.        
-3.         1.         1.         1.         1.         10.n       1.E+12     1.E+12     1.E+12    -0.001      0.001      0.001      1.        
 1.         1.         1.         1.         1.         10.n       1.E+12     1.E+12     1.E+12    -0.001      0.001      0.001      1.        
 0.         1.         1.         1.         1.         10.n       1.E+12     1.E+12     1.E+12    -0.001      0.001      0.001      0.        
-1.         1.         1.         1.         2.         20.n       1.E+12     1.E+12     1.E+12    -0.002      0.002      0.002      1.        
-2.         1.         1.         1.         2.         20.n       1.E+12     1.E+12     1.E+12    -0.002      0.002      0.002      1.        
-3.         1.         1.         1.         2.         20.n       1.E+12     1.E+12     1.E+12    -0.002      0.002      0.002      1.        
 2.         1.         1.         1.         2.         20.n       1.E+12     1.E+12     1.E+12    -0.002      0.002      0.002      1.        
 0.         1.         1.         1.         2.         20.n       1.E+12     1.E+12     1.E+12    -0.002      0.002      0.002      0.        
-1.         1.         1.         1.         2.         20.n       1.E+12     1.E+12     1.E+12    -0.002      0.002      0.002      1.        
 2.         1.         1.         1.         2.         20.n       1.E+12     1.E+12     1.E+12    -0.002      0.002      0.002      1.        
 0.         1.         1.         1.         2.         20.n       1.K        1.E+12     1.E+12    -0.002      0.002      0.002      0.        
-1.         0.5        1.         1.         2.         20.n       1.K        1.E+12     1.E+12    -0.002      0.002      0.002      1.        
 2.         0.5        1.         1.         2.         20.n       1.K        1.E+12     1.E+12    -0.002      0.002      0.002      1.        
 0.         0.5        1.         1.         2.         20.n       1.K        1.K        1.E+12    -0.002      0.002      0.002      0.        
-1.         0.5        0.5        1.         2.         20.n       1.K        1.K        1.E+12    -0.002      0.002      0.002      1.        
 2.         0.5        0.5        1.         2.         20.n       1.K        1.K        1.E+12    -0.002      0.002      0.002      1.        
 0.         0.5        0.5        1.         2.         20.n       1.K        1.K        1.E+12    -0.002      0.002      0.002      0.        
-1.         0.5        0.5        1.         2.0014     20.014n    1.K        1.K        1.E+12    -0.0020014  0.0020014  0.0020014  1.        
 2.0014     0.5        0.5        1.         2.0014     20.014n    1.K        1.K        1.E+12    -0.0020014  0.0020014  0.0020014  1.        
 0.         0.5        0.5        1.         2.         20.n       1.K        1.K        1.E+12    -0.0020014  0.002      0.002      0.        
-1.         0.5        0.5        1.         2.0002     20.002n    1.K        1.K        1.E+12    -0.0020002  0.0020002  0.0020002  1.        
 2.0002     0.5        0.5        1.         2.0002     20.002n    1.K        1.K        1.E+12    -0.0020002  0.0020002  0.0020002  1.        
 0.         0.5        0.5        1.         2.0002     20.002n    1.K        1.K        1.E+12    -0.0020002  0.0020002  0.0020002  0.        
-1.         0.5        0.5        1.         2.0004     20.004n    1.K        1.K        1.E+12    -0.0020004  0.0020004  0.0020004  1.        
 2.0004     0.5        0.5        1.         2.0004     20.004n    1.K        1.K        1.E+12    -0.0020004  0.0020004  0.0020004  1.        
 0.         0.5        0.5        1.         2.0004     20.004n    1.K        1.K        1.E+12    -0.0020004  0.0020004  0.0020004  0.        
-1.         0.5        0.5        1.         2.0041     20.041n    1.K        1.K        1.E+12    -0.0020041  0.0020041  0.0020041  1.        
-2.         0.5        0.5        1.         2.0041     20.041n    1.K        1.K        1.E+12    -0.0020041  0.0020041  0.0020041  1.        
-3.         0.5        0.5        1.         2.0041     20.041n    1.K        1.K        1.E+12    -0.0020041  0.0020041  0.0020041  1.        
 2.0041     0.5        0.5        1.         2.0041     20.041n    1.K        1.K        1.E+12    -0.0020041  0.0020041  0.0020041  1.        
 0.         0.5        0.5        1.         2.0041     20.041n    1.K        1.K        1.E+12    -0.0020041  0.0020041  0.0020041  0.        
-1.         0.5        0.5        1.         2.336      23.36n     1.K        1.K        1.E+12    -0.002336   0.002336   0.002336   1.        
-2.         0.5        0.5        1.         2.336      23.36n     1.K        1.K        1.E+12    -0.002336   0.002336   0.002336   1.        
-3.         0.5        0.5        1.         2.336      23.36n     1.K        1.K        1.E+12    -0.002336   0.002336   0.002336   1.        
 2.336      0.5        0.5        1.         2.336      23.36n     1.K        1.K        1.E+12    -0.002336   0.002336   0.002336   1.        
 0.         0.5        0.5        1.         2.336      23.36n     1.K        1.K        1.E+12    -0.002336   0.002336   0.002336   0.        
-1.         0.5        0.5        1.         3.         30.n       1.K        1.K        1.E+12    -0.003      0.003      0.003      1.        
-2.         0.5        0.5        1.         3.         30.n       1.K        1.K        1.E+12    -0.003      0.003      0.003      1.        
-3.         0.5        0.5        1.         3.         30.n       1.K        1.K        1.E+12    -0.003      0.003      0.003      1.        
 3.         0.5        0.5        1.         3.         30.n       1.K        1.K        1.E+12    -0.003      0.003      0.003      1.        
 0.         0.5        0.5        1.         3.         30.n       1.K        1.K        1.E+12    -0.003      0.003      0.003      0.        
-1.         0.5        0.5        1.         4.         40.n       1.K        1.K        1.E+12    -0.004      0.004      0.004      1.        
-2.         0.5        0.5        1.         4.         40.n       1.K        1.K        1.E+12    -0.004      0.004      0.004      1.        
-3.         0.5        0.5        1.         4.         40.n       1.K        1.K        1.E+12    -0.004      0.004      0.004      1.        
 4.         0.5        0.5        1.         4.         40.n       1.K        1.K        1.E+12    -0.004      0.004      0.004      1.        
 0.         0.5        0.5        1.         4.         40.n       1.K        1.K        1.E+12    -0.004      0.004      0.004      0.        
-1.         0.5        0.5        1.         5.         50.n       1.K        1.K        1.E+12    -0.005      0.005      0.005      1.        
-2.         0.5        0.5        1.         5.         50.n       1.K        1.K        1.E+12    -0.005      0.005      0.005      1.        
-3.         0.5        0.5        1.         5.         50.n       1.K        1.K        1.E+12    -0.005      0.005      0.005      1.        
-4.         0.5        0.5        1.         5.         50.n       1.K        1.K        1.E+12    -0.005      0.005      0.005      1.        
 5.         0.5        0.5        1.         5.         50.n       1.K        1.K        1.E+12    -0.005      0.005      0.005      1.        
 0.         0.5        0.5        1.         5.         50.n       1.K        1.K        1.E+12    -0.005      0.005      0.005      0.        
-1.         0.5        0.5        1.         4.         40.n       1.K        1.K        1.E+12    -0.004      0.004      0.004      1.        
-2.         0.5        0.5        1.         4.         40.n       1.K        1.K        1.E+12    -0.004      0.004      0.004      1.        
-3.         0.5        0.5        1.         4.         40.n       1.K        1.K        1.E+12    -0.004      0.004      0.004      1.        
 6.         0.5        0.5        1.         4.         40.n       1.K        1.K        1.E+12    -0.004      0.004      0.004      1.        
 0.         0.5        0.5        1.         4.         40.n       1.K        1.K        1.E+12    -0.004      0.004      0.004      0.        
-1.         0.5        0.5        1.         3.         30.n       1.K        1.K        1.E+12    -0.003      0.003      0.003      1.        
-2.         0.5        0.5        1.         3.         30.n       1.K        1.K        1.E+12    -0.003      0.003      0.003      1.        
-3.         0.5        0.5        1.         3.         30.n       1.K        1.K        1.E+12    -0.003      0.003      0.003      1.        
 7.         0.5        0.5        1.         3.         30.n       1.K        1.K        1.E+12    -0.003      0.003      0.003      1.        
 0.         0.5        0.5        1.         3.         30.n       1.K        1.K        1.E+12    -0.003      0.003      0.003      0.        
-1.         0.5        0.5        1.         2.         20.n       1.K        1.K        1.E+12    -0.002      0.002      0.002      1.        
-2.         0.5        0.5        1.         2.         20.n       1.K        1.K        1.E+12    -0.002      0.002      0.002      1.        
-3.         0.5        0.5        1.         2.         20.n       1.K        1.K        1.E+12    -0.002      0.002      0.002      1.        
 8.         0.5        0.5        1.         2.         20.n       1.K        1.K        1.E+12    -0.002      0.002      0.002      1.        
 0.         0.5        0.5        1.         2.         20.n       1.K        1.K        1.E+12    -0.002      0.002      0.002      0.        
-1.         0.5        0.5        1.         1.         10.n       1.K        1.K        1.E+12    -0.001      0.001      0.001      1.        
-2.         0.5        0.5        1.         1.         10.n       1.K        1.K        1.E+12    -0.001      0.001      0.001      1.        
-3.         0.5        0.5        1.         1.         10.n       1.K        1.K        1.E+12    -0.001      0.001      0.001      1.        
 9.         0.5        0.5        1.         1.         10.n       1.K        1.K        1.E+12    -0.001      0.001      0.001      1.        
 0.         0.5        0.5        1.         1.         10.n       1.K        1.K        1.E+12    -0.001      0.001      0.001      0.        
-1.         0.5        0.5        1.         0.         0.         1.K        1.K        1.E+12     0.         0.         0.         1.        
-2.         0.5        0.5        1.         0.         0.         1.K        1.K        1.E+12     0.         0.         0.         1.        
-3.         0.5        0.5        1.         0.         0.         1.K        1.K        1.E+12     0.         0.         0.         1.        
 10.        0.5        0.5        1.         0.         0.         1.K        1.K        1.E+12     0.         0.         0.         1.        
 0.         0.5        0.5        1.         0.         0.         1.K        1.K        1.E+12     0.         0.         0.         0.        
-1.         0.5        0.5        1.        -1.        -10.n       1.K        1.K        1.E+12     0.001     -0.001     -0.001      1.        
-2.         0.5        0.5        1.        -1.        -10.n       1.K        1.K        1.E+12     0.001     -0.001     -0.001      1.        
-3.         0.5        0.5        1.        -1.        -10.n       1.K        1.K        1.E+12     0.001     -0.001     -0.001      1.        
 11.        0.5        0.5        1.        -1.        -10.n       1.K        1.K        1.E+12     0.001     -0.001     -0.001      1.        
 0.         0.5        0.5        1.        -1.        -10.n       1.K        1.K        1.E+12     0.001     -0.001     -0.001      0.        
-1.         0.5        0.5        1.        -2.        -20.n       1.K        1.K        1.E+12     0.002     -0.002     -0.002      1.        
-2.         0.5        0.5        1.        -2.        -20.n       1.K        1.K        1.E+12     0.002     -0.002     -0.002      1.        
-3.         0.5        0.5        1.        -2.        -20.n       1.K        1.K        1.E+12     0.002     -0.002     -0.002      1.        
 12.        0.5        0.5        1.        -2.        -20.n       1.K        1.K        1.E+12     0.002     -0.002     -0.002      1.        
 0.         0.5        0.5        1.        -2.        -20.n       1.K        1.K        1.K        0.002     -0.002     -0.002      0.        
-1.         0.5        0.5        0.5       -2.        -20.n       1.K        1.K        1.K        0.002     -0.002     -0.002      1.        
 12.        0.5        0.5        0.5       -2.        -20.n       1.K        1.K        1.K        0.002     -0.002     -0.002      1.        
 0.         0.5        0.5        0.5       -2.        -20.n       1.E+12     1.E+12     1.K        0.002     -0.002     -0.002      0.        
-1.         1.         1.         0.5       -2.        -20.n       1.E+12     1.E+12     1.K        0.002     -0.002     -0.002      1.        
 12.        1.         1.         0.5       -2.        -20.n       1.E+12     1.E+12     1.K        0.002     -0.002     -0.002      1.        
 0.         1.         1.         0.5       -2.        -20.n       1.E+12     1.E+12     1.K        0.002     -0.002     -0.002      0.        
-1.         1.         1.         0.5       -2.2       -22.n       1.E+12     1.E+12     1.K        0.0022    -0.0022    -0.0022     1.        
